T845C 000:005.604   SEGGER J-Link V7.64 Log File
T845C 000:005.712   DLL Compiled: Apr  1 2022 16:04:43
T845C 000:005.714   Logging started @ 2022-10-16 17:01
T845C 000:005.717 - 5.718ms
T845C 000:005.722 JLINK_SetWarnOutHandler(...)
T845C 000:005.725 - 0.004ms
T845C 000:005.728 JLINK_OpenEx(...)
T845C 000:007.305   Firmware: J-Link V9 compiled May  7 2021 16:26:12
T845C 000:007.597   Firmware: J-Link V9 compiled May  7 2021 16:26:12
T845C 000:007.712   Decompressing FW timestamp took 97 us
T845C 000:014.563   Hardware: V9.50
T845C 000:014.571   S/N: 20581318
T845C 000:014.575   OEM: SEGGER
T845C 000:014.579   Feature(s): RDI, FlashBP, FlashDL, JFlash, GDB
T845C 000:015.633   TELNET listener socket opened on port 19021
T845C 000:015.685   WEBSRV WEBSRV_Init(): Starting webserver thread(s)
T845C 000:015.804   WEBSRV Webserver running on local port 19080
T845C 000:020.372 - 14.650ms returns "O.K."
T845C 000:020.390 JLINK_GetEmuCaps()
T845C 000:020.393 - 0.004ms returns 0xB9FF7BBF
T845C 000:020.400 JLINK_TIF_GetAvailable(...)
T845C 000:020.567 - 0.168ms
T845C 000:020.571 JLINK_SetErrorOutHandler(...)
T845C 000:020.574 - 0.003ms
T845C 000:020.583 JLINK_ExecCommand("ProjectFile = "F:\stm32_workdir\HIt_Workers\stm32_demos\BOOT_v0\MDK-ARM\JLinkSettings.ini"", ...). 
T845C 000:027.478 - 6.899ms returns 0x00
T845C 000:027.502 JLINK_ExecCommand("Device = STM32H750VBTx", ...). 
T845C 000:030.129   Device "STM32H750VB" selected.
T845C 000:030.346 - 2.842ms returns 0x00
T845C 000:030.353 JLINK_ExecCommand("DisableConnectionTimeout", ...). 
T845C 000:030.357 - 0.002ms returns 0x01
T845C 000:030.361 JLINK_GetHardwareVersion()
T845C 000:030.363 - 0.003ms returns 95000
T845C 000:030.368 JLINK_GetDLLVersion()
T845C 000:030.370 - 0.003ms returns 76400
T845C 000:030.373 JLINK_GetOEMString(...)
T845C 000:030.376 JLINK_GetFirmwareString(...)
T845C 000:030.379 - 0.003ms
T845C 000:030.391 JLINK_GetDLLVersion()
T845C 000:030.393 - 0.003ms returns 76400
T845C 000:030.396 JLINK_GetCompileDateTime()
T845C 000:030.398 - 0.003ms
T845C 000:030.404 JLINK_GetFirmwareString(...)
T845C 000:030.406 - 0.003ms
T845C 000:030.411 JLINK_GetHardwareVersion()
T845C 000:030.413 - 0.003ms returns 95000
T845C 000:030.417 JLINK_GetSN()
T845C 000:030.420 - 0.003ms returns 20581318
T845C 000:030.424 JLINK_GetOEMString(...)
T845C 000:030.431 JLINK_TIF_Select(JLINKARM_TIF_SWD)
T845C 000:031.073 - 0.647ms returns 0x00
T845C 000:031.082 JLINK_HasError()
T845C 000:031.088 JLINK_SetSpeed(5000)
T845C 000:031.174 - 0.087ms
T845C 000:031.178 JLINK_GetId()
T845C 000:031.348   ConfigTargetSettings() start
T845C 000:031.353    J-Link Script File: Executing ConfigTargetSettings()
T845C 000:031.366   ConfigTargetSettings() end
T845C 000:032.096   Found SW-DP with ID 0x6BA02477
T845C 000:047.599   Found SW-DP with ID 0x6BA02477
T845C 000:050.015   DPIDR: 0x6BA02477
T845C 000:050.021   CoreSight SoC-400 or earlier
T845C 000:050.026   Scanning AP map to find all available APs
T845C 000:050.925   AP[3]: Stopped AP scan as end of AP map has been reached
T845C 000:050.933   AP[0]: AHB-AP (IDR: 0x84770001)
T845C 000:050.939   AP[1]: AHB-AP (IDR: 0x84770001)
T845C 000:050.945   AP[2]: APB-AP (IDR: 0x54770002)
T845C 000:050.950   Iterating through AP map to find AHB-AP to use
T845C 000:051.756   AP[0]: Core found
T845C 000:051.762   AP[0]: AHB-AP ROM base: 0xE00FE000
T845C 000:052.188   CPUID register: 0x411FC271. Implementer code: 0x41 (ARM)
T845C 000:052.194   Found Cortex-M7 r1p1, Little endian.
T845C 000:153.116   -- Max. mem block: 0x0000C9B8
T845C 000:153.832   CPU_ReadMem(4 bytes @ 0xE000EDF0)
T845C 000:154.153   CPU_ReadMem(4 bytes @ 0xE0002000)
T845C 000:154.478   FPUnit: 8 code (BP) slots and 0 literal slots
T845C 000:154.491   CPU_ReadMem(4 bytes @ 0xE000EDFC)
T845C 000:154.821   CPU_WriteMem(4 bytes @ 0xE000EDFC)
T845C 000:155.152   CPU_ReadMem(4 bytes @ 0xE0001000)
T845C 000:155.475   CPU_WriteMem(4 bytes @ 0xE0001000)
T845C 000:155.849   CPU_ReadMem(4 bytes @ 0xE000ED88)
T845C 000:156.180   CPU_WriteMem(4 bytes @ 0xE000ED88)
T845C 000:156.518   CPU_ReadMem(4 bytes @ 0xE000ED88)
T845C 000:156.850   CPU_WriteMem(4 bytes @ 0xE000ED88)
T845C 000:157.189   CoreSight components:
T845C 000:157.207   ROMTbl[0] @ E00FE000
T845C 000:157.220   CPU_ReadMem(64 bytes @ 0xE00FE000)
T845C 000:157.800   CPU_ReadMem(32 bytes @ 0xE00FFFE0)
T845C 000:158.252   [0][0]: E00FF000 CID B105100D PID 000BB4C7 ROM Table
T845C 000:158.271   ROMTbl[1] @ E00FF000
T845C 000:158.284   CPU_ReadMem(64 bytes @ 0xE00FF000)
T845C 000:158.886   CPU_ReadMem(32 bytes @ 0xE000EFE0)
T845C 000:159.339   [1][0]: E000E000 CID B105E00D PID 000BB00C SCS-M7
T845C 000:159.355   CPU_ReadMem(32 bytes @ 0xE0001FE0)
T845C 000:159.796   [1][1]: E0001000 CID B105E00D PID 000BB002 DWT
T845C 000:159.808   CPU_ReadMem(32 bytes @ 0xE0002FE0)
T845C 000:160.260   [1][2]: E0002000 CID B105E00D PID 000BB00E FPB-M7
T845C 000:160.273   CPU_ReadMem(32 bytes @ 0xE0000FE0)
T845C 000:160.777   [1][3]: E0000000 CID B105E00D PID 000BB001 ITM
T845C 000:160.790   CPU_ReadMem(32 bytes @ 0xE0041FE0)
T845C 000:161.230   [0][1]: E0041000 CID B105900D PID 001BB975 ETM-M7
T845C 000:161.243   CPU_ReadMem(32 bytes @ 0xE0043FE0)
T845C 000:161.725   [0][2]: E0043000 CID B105900D PID 004BB906 CTI
T845C 000:161.738   CPU_ReadMem(4 bytes @ 0xE000ED78)
T845C 000:162.067   Cache: Separate I- and D-cache.
T845C 000:162.077   CPU_WriteMem(4 bytes @ 0xE000ED84)
T845C 000:162.405   CPU_ReadMem(4 bytes @ 0xE000ED80)
T845C 000:162.716   I-Cache L1: 16 KB, 256 Sets, 32 Bytes/Line, 2-Way
T845C 000:162.728   CPU_WriteMem(4 bytes @ 0xE000ED84)
T845C 000:163.052   CPU_ReadMem(4 bytes @ 0xE000ED80)
T845C 000:163.395   D-Cache L1: 16 KB, 128 Sets, 32 Bytes/Line, 4-Way
T845C 000:163.819 - 132.664ms returns 0x6BA02477
T845C 000:163.875 JLINK_GetDLLVersion()
T845C 000:163.884 - 0.013ms returns 76400
T845C 000:163.895 JLINK_CORE_GetFound()
T845C 000:163.902 - 0.011ms returns 0xE0100FF
T845C 000:163.913 JLINK_GetDebugInfo(0x100 = JLINKARM_ROM_TABLE_ADDR_INDEX)
T845C 000:163.924   Value=0xE00FE000
T845C 000:163.936 - 0.026ms returns 0
T845C 000:164.036 JLINK_GetDebugInfo(0x100 = JLINKARM_ROM_TABLE_ADDR_INDEX)
T845C 000:164.056   Value=0xE00FE000
T845C 000:164.068 - 0.056ms returns 0
T845C 000:164.101 JLINK_GetDebugInfo(0x101 = JLINKARM_DEBUG_INFO_ETM_ADDR_INDEX)
T845C 000:164.110   Value=0xE0041000
T845C 000:164.120 - 0.023ms returns 0
T845C 000:164.136 JLINK_ReadMemEx(0xE0041FD0, 0x20 Bytes, Flags = 0x02000004)
T845C 000:164.169   CPU_ReadMem(32 bytes @ 0xE0041FD0)
T845C 000:164.630   Data:  04 00 00 00 00 00 00 00 00 00 00 00 00 00 00 00 ...
T845C 000:164.650 - 0.518ms returns 32 (0x20)
T845C 000:164.668 JLINK_GetDebugInfo(0x102 = JLINKARM_DEBUG_INFO_MTB_ADDR_INDEX)
T845C 000:164.677   Value=0x00000000
T845C 000:164.688 - 0.024ms returns 0
T845C 000:164.698 JLINK_GetDebugInfo(0x103 = JLINKARM_DEBUG_INFO_TPIU_ADDR_INDEX)
T845C 000:164.706   Value=0xE00F5000
T845C 000:164.717 - 0.022ms returns 0
T845C 000:164.727 JLINK_GetDebugInfo(0x104 = JLINKARM_DEBUG_INFO_ITM_ADDR_INDEX)
T845C 000:164.735   Value=0xE0000000
T845C 000:164.745 - 0.022ms returns 0
T845C 000:164.755 JLINK_GetDebugInfo(0x105 = JLINKARM_DEBUG_INFO_DWT_ADDR_INDEX)
T845C 000:164.763   Value=0xE0001000
T845C 000:164.773 - 0.022ms returns 0
T845C 000:164.783 JLINK_GetDebugInfo(0x106 = JLINKARM_DEBUG_INFO_FPB_ADDR_INDEX)
T845C 000:164.791   Value=0xE0002000
T845C 000:164.802 - 0.022ms returns 0
T845C 000:164.811 JLINK_GetDebugInfo(0x107 = JLINKARM_DEBUG_INFO_NVIC_ADDR_INDEX)
T845C 000:164.819   Value=0xE000E000
T845C 000:164.829 - 0.022ms returns 0
T845C 000:164.839 JLINK_GetDebugInfo(0x10C = JLINKARM_DEBUG_INFO_DBG_ADDR_INDEX)
T845C 000:164.847   Value=0xE000EDF0
T845C 000:164.857 - 0.022ms returns 0
T845C 000:164.867 JLINK_GetDebugInfo(0x01 = Unknown)
T845C 000:164.874   Value=0x00000001
T845C 000:164.885 - 0.022ms returns 0
T845C 000:164.894 JLINK_ReadMemU32(0xE000ED00, 0x1 Items)
T845C 000:164.916   CPU_ReadMem(4 bytes @ 0xE000ED00)
T845C 000:165.245   Data:  71 C2 1F 41
T845C 000:165.259   Debug reg: CPUID
T845C 000:165.355 - 0.464ms returns 1 (0x1)
T845C 000:165.367 JLINK_GetDebugInfo(0x10F = JLINKARM_DEBUG_INFO_HAS_CORTEX_M_SECURITY_EXT_INDEX)
T845C 000:165.375   Value=0x00000000
T845C 000:165.386 - 0.022ms returns 0
T845C 000:165.396 JLINK_HasError()
T845C 000:165.406 JLINK_SetResetType(JLINKARM_CM3_RESET_TYPE_NORMAL)
T845C 000:165.414 - 0.011ms returns JLINKARM_CM3_RESET_TYPE_NORMAL
T845C 000:165.424 JLINK_Reset()
T845C 000:165.453   CPU is running
T845C 000:165.466   CPU_WriteMem(4 bytes @ 0xE000EDF0)
T845C 000:165.866   CPU is running
T845C 000:165.882   CPU_WriteMem(4 bytes @ 0xE000EDFC)
T845C 000:166.228   Reset: Halt core after reset via DEMCR.VC_CORERESET.
T845C 000:166.682   Reset: Reset device via AIRCR.SYSRESETREQ.
T845C 000:166.696   CPU is running
T845C 000:166.709   CPU_WriteMem(4 bytes @ 0xE000ED0C)
T845C 000:219.455   CPU_ReadMem(4 bytes @ 0xE000EDF0)
T845C 000:219.847   CPU_ReadMem(4 bytes @ 0xE000EDF0)
T845C 000:220.308   CPU is running
T845C 000:220.323   CPU_WriteMem(4 bytes @ 0xE000EDF0)
T845C 000:220.676   CPU is running
T845C 000:220.689   CPU_WriteMem(4 bytes @ 0xE000EDFC)
T845C 000:227.014   CPU_ReadMem(4 bytes @ 0xE000EDF0)
T845C 000:229.331   CPU_WriteMem(4 bytes @ 0xE0002000)
T845C 000:229.751   CPU_ReadMem(4 bytes @ 0xE000EDFC)
T845C 000:230.146   CPU_ReadMem(4 bytes @ 0xE0001000)
T845C 000:230.509 - 65.090ms
T845C 000:230.537 JLINK_HasError()
T845C 000:230.550 JLINK_ReadReg(R15 (PC))
T845C 000:230.569 - 0.023ms returns 0x080002AC
T845C 000:230.580 JLINK_ReadReg(XPSR)
T845C 000:230.589 - 0.012ms returns 0x01000000
T845C 000:230.673 JLINK_Halt()
T845C 000:230.683 - 0.014ms returns 0x00
T845C 000:230.694 JLINK_ReadMemU32(0xE000EDF0, 0x1 Items)
T845C 000:230.711   CPU_ReadMem(4 bytes @ 0xE000EDF0)
T845C 000:231.082   Data:  03 00 03 00
T845C 000:231.095   Debug reg: DHCSR
T845C 000:231.106 - 0.416ms returns 1 (0x1)
T845C 000:231.121 JLINK_WriteU32_64(0xE000EDF0, 0xA05F0003)
T845C 000:231.130   Debug reg: DHCSR
T845C 000:231.640   CPU_WriteMem(4 bytes @ 0xE000EDF0)
T845C 000:232.026 - 0.910ms returns 0 (0x00000000)
T845C 000:232.040 JLINK_WriteU32_64(0xE000EDFC, 0x01000000)
T845C 000:232.047   Debug reg: DEMCR
T845C 000:232.064   CPU_WriteMem(4 bytes @ 0xE000EDFC)
T845C 000:232.499 - 0.478ms returns 0 (0x00000000)
T845C 000:232.581 JLINK_GetHWStatus(...)
T845C 000:233.028 - 0.462ms returns 0
T845C 000:233.083 JLINK_GetNumBPUnits(Type = 0xFFFFFF00)
T845C 000:233.092 - 0.012ms returns 0x08
T845C 000:233.100 JLINK_GetNumBPUnits(Type = 0xF0)
T845C 000:233.107 - 0.009ms returns 0x2000
T845C 000:233.114 JLINK_GetNumWPUnits()
T845C 000:233.120 - 0.009ms returns 4
T845C 000:233.142 JLINK_GetSpeed()
T845C 000:233.148 - 0.009ms returns 4000
T845C 000:233.162 JLINK_ReadMemU32(0xE000E004, 0x1 Items)
T845C 000:233.180   CPU_ReadMem(4 bytes @ 0xE000E004)
T845C 000:233.750   Data:  04 00 00 00
T845C 000:233.768 - 0.609ms returns 1 (0x1)
T845C 000:233.780 JLINK_ReadMemU32(0xE000E004, 0x1 Items)
T845C 000:233.795   CPU_ReadMem(4 bytes @ 0xE000E004)
T845C 000:234.077   Data:  04 00 00 00
T845C 000:234.097 - 0.320ms returns 1 (0x1)
T845C 000:234.108 JLINK_WriteMemEx(0xE0001000, 0x0000001C Bytes, Flags = 0x02000004)
T845C 000:234.133   Data:  01 00 00 00 00 00 00 00 00 00 00 00 00 00 00 00 ...
T845C 000:234.150   CPU_WriteMem(28 bytes @ 0xE0001000)
T845C 000:234.591 - 0.486ms returns 0x1C
T845C 000:234.601 JLINK_HasError()
T845C 000:234.610 JLINK_ReadReg(R15 (PC))
T845C 000:234.618 - 0.010ms returns 0x080002AC
T845C 000:234.624 JLINK_ReadReg(XPSR)
T845C 000:234.629 - 0.007ms returns 0x01000000
T845C 000:237.512 JLINK_SWO_Control(JLINKARM_SWO_CMD_GET_SPEED_INFO, ...)
T845C 000:237.776 - 0.269ms returns 0x00
T845C 000:237.787 JLINK_SWO_DisableTarget()
T845C 000:237.792   JLINK_ReadMemU32(0xE0000E00, 0x1 Items)
T845C 000:237.801     CPU_ReadMem(4 bytes @ 0xE0000E00)
T845C 000:238.043     Data:  FF FF FF FF
T845C 000:238.049     Debug reg: ITM_TER
T845C 000:238.054   - 0.264ms returns 1 (0x1)
T845C 000:238.059   JLINK_WriteU32_64(0xE0000E00, 0x00000000)
T845C 000:238.066     Debug reg: ITM_TER
T845C 000:238.075   - 0.017ms returns 0 (0x00000000)
T845C 000:238.079   JLINK_WriteU32_64(0xE0000E80, 0x00000000)
T845C 000:238.083     Debug reg: ITM_TCR
T845C 000:238.089   - 0.011ms returns 0 (0x00000000)
T845C 000:238.094 - 0.309ms returns 0x00
T845C 000:238.099 JLINK_SWO_EnableTarget(CPUSpeed = 64000000, SWOSpeed = 5333333, Mode = 0)
T845C 000:238.121   SWO_EnableTarget() start
T845C 000:238.126    J-Link Script File: Executing SWO_EnableTarget()
T845C 000:238.133   CPU_ReadMem(4 bytes @ 0x580244E0)
T845C 000:238.382   CPU_WriteMem(4 bytes @ 0x580244E0)
T845C 000:238.668   CPU_ReadMem(4 bytes @ 0x58020400)
T845C 000:238.918   CPU_WriteMem(4 bytes @ 0x58020400)
T845C 000:239.165   CPU_ReadMem(4 bytes @ 0x5802040C)
T845C 000:239.415   CPU_WriteMem(4 bytes @ 0x5802040C)
T845C 000:239.663   CPU_ReadMem(4 bytes @ 0x58020408)
T845C 000:239.907   CPU_WriteMem(4 bytes @ 0x58020408)
T845C 000:240.156   CPU_ReadMem(4 bytes @ 0x58020420)
T845C 000:240.398   CPU_WriteMem(4 bytes @ 0x58020420)
T845C 000:240.657   CPU_ReadMem(4 bytes @ 0x5C001004)
T845C 000:240.921   CPU_WriteMem(4 bytes @ 0x5C001004)
T845C 000:241.170   SWO_EnableTarget() end
T845C 000:241.177   JLINK_SWO_Control(JLINKARM_SWO_CMD_GET_SPEED_INFO, ...)
T845C 000:241.360   - 0.202ms returns 0x00
T845C 000:241.388   CPU_WriteMem(4 bytes @ 0xE0000E80)
T845C 000:241.690   CPU_ReadMem(4 bytes @ 0xE0000E80)
T845C 000:241.938   Executing J-Link script file function SWO_Generic_DeInit()
T845C 000:241.950   SWO_Generic_DeInit() start
T845C 000:241.956    J-Link Script File: Executing SWO_Generic_DeInit()
T845C 000:241.966   CPU_WriteMem(4 bytes @ 0xE0000FB0)
T845C 000:242.218   SWO_Generic_DeInit() end
T845C 000:242.252    -- UART
T845C 000:242.258    -- 5000000bps
T845C 000:242.840   Executing J-Link script file function SWO_Generic_Init()
T845C 000:242.854   SWO_Generic_Init() start
T845C 000:242.861    J-Link Script File: Executing SWO_Generic_Init()
T845C 000:247.794   CPU_ReadMem(4 bytes @ 0xE0001000)
T845C 000:248.045   CPU_ReadMem(4 bytes @ 0xE0001000)
T845C 000:248.296   CPU_WriteMem(4 bytes @ 0xE0001000)
T845C 000:252.301   SWO_Generic_Init() end
T845C 000:252.308 - 14.210ms returns 0x00
T845C 000:252.315 JLINK_WriteU32_64(0xE00F5010, 0x0000000B)
T845C 000:252.324   CPU_WriteMem(4 bytes @ 0xE00F5010)
T845C 000:252.683 - 0.370ms returns 0 (0x00000000)
T845C 000:252.690 JLINK_WriteU32_64(0xE00F50F0, 0x00000002)
T845C 000:252.698   CPU_WriteMem(4 bytes @ 0xE00F50F0)
T845C 000:253.037 - 0.349ms returns 0 (0x00000000)
T845C 000:253.044 JLINK_WriteU32_64(0xE00F5304, 0x00000000)
T845C 000:253.051   CPU_WriteMem(4 bytes @ 0xE00F5304)
T845C 000:253.304 - 0.262ms returns 0 (0x00000000)
T845C 000:253.311 JLINK_WriteU32_64(0xE0000FB0, 0xC5ACCE55)
T845C 000:253.316   Debug reg: ITM_LOCKACCESS
T845C 000:253.323 - 0.014ms returns 0 (0x00000000)
T845C 000:253.329 JLINK_WriteU32_64(0xE0000E80, 0x0001000D)
T845C 000:253.333   Debug reg: ITM_TCR
T845C 000:253.340 - 0.013ms returns 0 (0x00000000)
T845C 000:253.345 JLINK_WriteU32_64(0xE0000E00, 0xFFFFFFFF)
T845C 000:253.349   Debug reg: ITM_TER
T845C 000:253.356 - 0.013ms returns 0 (0x00000000)
T845C 000:253.361 JLINK_WriteU32_64(0xE0000E40, 0x00000008)
T845C 000:253.365   Debug reg: ITM_TPR
T845C 000:253.374 - 0.015ms returns 0 (0x00000000)
T845C 000:253.380 JLINK_WriteU32_64(0xE0001000, 0x0001061F)
T845C 000:253.384   Debug reg: DWT_CTRL
T845C 000:253.391   CPU_WriteMem(4 bytes @ 0xE0001000)
T845C 000:253.663 - 0.285ms returns 0 (0x00000000)
T845C 000:263.801 JLINK_ReadMemEx(0xE0001004, 0x4 Bytes, Flags = 0x02000000)
T845C 000:263.817   Data:  00 00 00 00
T845C 000:263.821   Debug reg: DWT_CYCCNT
T845C 000:263.824 - 0.024ms returns 4 (0x4)
T845C 000:325.379 JLINK_HasError()
T845C 000:325.415 JLINK_SetResetType(JLINKARM_CM3_RESET_TYPE_NORMAL)
T845C 000:325.426 - 0.014ms returns JLINKARM_CM3_RESET_TYPE_NORMAL
T845C 000:325.437 JLINK_Reset()
T845C 000:325.460   CPU_WriteMem(4 bytes @ 0xE0000E40)
T845C 000:325.484   CPU_WriteMem(4 bytes @ 0xE0000E80)
T845C 000:325.987   CPU_WriteMem(4 bytes @ 0xE000EDF0)
T845C 000:326.323   CPU_WriteMem(4 bytes @ 0xE000EDFC)
T845C 000:326.695   Reset: Halt core after reset via DEMCR.VC_CORERESET.
T845C 000:327.122   Reset: Reset device via AIRCR.SYSRESETREQ.
T845C 000:327.137   CPU_WriteMem(4 bytes @ 0xE000ED0C)
T845C 000:379.874   CPU_ReadMem(4 bytes @ 0xE000EDF0)
T845C 000:380.337   CPU_ReadMem(4 bytes @ 0xE000EDF0)
T845C 000:380.774   CPU_WriteMem(4 bytes @ 0xE000EDF0)
T845C 000:381.209   CPU_WriteMem(4 bytes @ 0xE000EDFC)
T845C 000:387.033   CPU_ReadMem(4 bytes @ 0xE000EDF0)
T845C 000:389.442   CPU_WriteMem(4 bytes @ 0xE0002000)
T845C 000:389.874   CPU_ReadMem(4 bytes @ 0xE000EDFC)
T845C 000:390.211   CPU_ReadMem(4 bytes @ 0xE0001000)
T845C 000:390.561 - 65.130ms
T845C 000:390.593 JLINK_WriteU32_64(0xE000EDFC, 0x01000000)
T845C 000:390.605   Debug reg: DEMCR
T845C 000:390.632   CPU_WriteMem(4 bytes @ 0xE000EDFC)
T845C 000:390.972 - 0.385ms returns 0 (0x00000000)
T845C 000:391.364 JLINK_HasError()
T845C 000:391.381 JLINK_ReadReg(R15 (PC))
T845C 000:391.394 - 0.017ms returns 0x080002AC
T845C 000:391.406 JLINK_ReadReg(XPSR)
T845C 000:391.416 - 0.014ms returns 0x01000000
T845C 000:397.229 JLINK_ReadMemEx(0x08000298, 0x3C Bytes, Flags = 0x02000000)
T845C 000:397.247   CPU_ReadMem(128 bytes @ 0x08000280)
T845C 000:398.092    -- Updating C cache (128 bytes @ 0x08000280)
T845C 000:398.100    -- Read from C cache (60 bytes @ 0x08000298)
T845C 000:398.108   Data:  DF F8 0C D0 00 F0 3C F8 00 48 00 47 11 26 00 08 ...
T845C 000:398.114 - 0.887ms returns 60 (0x3C)
T845C 000:398.120 JLINK_ReadMemEx(0x08000298, 0x2 Bytes, Flags = 0x02000000)
T845C 000:398.126    -- Read from C cache (2 bytes @ 0x08000298)
T845C 000:398.132   Data:  DF F8
T845C 000:398.137 - 0.019ms returns 2 (0x2)
T845C 000:398.201 JLINK_ReadMemEx(0x0800029A, 0x2 Bytes, Flags = 0x02000000)
T845C 000:398.207    -- Read from C cache (2 bytes @ 0x0800029A)
T845C 000:398.212   Data:  0C D0
T845C 000:398.218 - 0.018ms returns 2 (0x2)
T845C 000:398.228 JLINK_ReadMemEx(0x0800029C, 0x3C Bytes, Flags = 0x02000000)
T845C 000:398.233    -- Read from C cache (60 bytes @ 0x0800029C)
T845C 000:398.239   Data:  00 F0 3C F8 00 48 00 47 11 26 00 08 28 10 00 24 ...
T845C 000:398.244 - 0.018ms returns 60 (0x3C)
T845C 000:398.249 JLINK_ReadMemEx(0x0800029C, 0x2 Bytes, Flags = 0x02000000)
T845C 000:398.254    -- Read from C cache (2 bytes @ 0x0800029C)
T845C 000:398.259   Data:  00 F0
T845C 000:398.265 - 0.017ms returns 2 (0x2)
T845C 000:398.270 JLINK_ReadMemEx(0x0800029E, 0x2 Bytes, Flags = 0x02000000)
T845C 000:398.275    -- Read from C cache (2 bytes @ 0x0800029E)
T845C 000:398.280   Data:  3C F8
T845C 000:398.286 - 0.017ms returns 2 (0x2)
T845C 000:398.291 JLINK_ReadMemEx(0x080002A0, 0x3C Bytes, Flags = 0x02000000)
T845C 000:398.295    -- Read from C cache (60 bytes @ 0x080002A0)
T845C 000:398.302   Data:  00 48 00 47 11 26 00 08 28 10 00 24 06 48 80 47 ...
T845C 000:398.307 - 0.018ms returns 60 (0x3C)
T845C 000:398.312 JLINK_ReadMemEx(0x080002A0, 0x2 Bytes, Flags = 0x02000000)
T845C 000:398.317    -- Read from C cache (2 bytes @ 0x080002A0)
T845C 000:398.322   Data:  00 48
T845C 000:398.328 - 0.017ms returns 2 (0x2)
T845C 000:398.333 JLINK_ReadMemEx(0x080002A2, 0x2 Bytes, Flags = 0x02000000)
T845C 000:398.337    -- Read from C cache (2 bytes @ 0x080002A2)
T845C 000:398.342   Data:  00 47
T845C 000:398.348 - 0.017ms returns 2 (0x2)
T845C 000:398.353 JLINK_ReadMemEx(0x080002A2, 0x2 Bytes, Flags = 0x02000000)
T845C 000:398.358    -- Read from C cache (2 bytes @ 0x080002A2)
T845C 000:398.363   Data:  00 47
T845C 000:398.369 - 0.017ms returns 2 (0x2)
T845C 000:398.374 JLINK_ReadMemEx(0x080002A4, 0x3C Bytes, Flags = 0x02000000)
T845C 000:398.379    -- Read from C cache (60 bytes @ 0x080002A4)
T845C 000:398.385   Data:  11 26 00 08 28 10 00 24 06 48 80 47 06 48 00 47 ...
T845C 000:398.390 - 0.018ms returns 60 (0x3C)
T845C 000:398.395 JLINK_ReadMemEx(0x080002A4, 0x2 Bytes, Flags = 0x02000000)
T845C 000:398.403    -- Read from C cache (2 bytes @ 0x080002A4)
T845C 000:398.410   Data:  11 26
T845C 000:398.415 - 0.022ms returns 2 (0x2)
T845C 000:398.424 JLINK_ReadMemEx(0x080002AA, 0x2 Bytes, Flags = 0x02000000)
T845C 000:398.428    -- Read from C cache (2 bytes @ 0x080002AA)
T845C 000:398.434   Data:  00 24
T845C 000:398.439 - 0.017ms returns 2 (0x2)
T845C 000:398.444 JLINK_ReadMemEx(0x080002AC, 0x3C Bytes, Flags = 0x02000000)
T845C 000:398.449    -- Read from C cache (60 bytes @ 0x080002AC)
T845C 000:398.455   Data:  06 48 80 47 06 48 00 47 FE E7 FE E7 FE E7 FE E7 ...
T845C 000:398.460 - 0.018ms returns 60 (0x3C)
T845C 000:398.466 JLINK_ReadMemEx(0x080002AC, 0x2 Bytes, Flags = 0x02000000)
T845C 000:398.470    -- Read from C cache (2 bytes @ 0x080002AC)
T845C 000:398.475   Data:  06 48
T845C 000:398.481 - 0.017ms returns 2 (0x2)
T845C 000:398.492 JLINK_ReadMemEx(0x080002AC, 0x3C Bytes, Flags = 0x02000000)
T845C 000:398.497    -- Read from C cache (60 bytes @ 0x080002AC)
T845C 000:398.503   Data:  06 48 80 47 06 48 00 47 FE E7 FE E7 FE E7 FE E7 ...
T845C 000:398.508 - 0.018ms returns 60 (0x3C)
T845C 000:398.513 JLINK_ReadMemEx(0x080002AC, 0x2 Bytes, Flags = 0x02000000)
T845C 000:398.517    -- Read from C cache (2 bytes @ 0x080002AC)
T845C 000:398.523   Data:  06 48
T845C 000:398.529 - 0.017ms returns 2 (0x2)
T845C 000:398.533 JLINK_ReadMemEx(0x080002AE, 0x2 Bytes, Flags = 0x02000000)
T845C 000:398.538    -- Read from C cache (2 bytes @ 0x080002AE)
T845C 000:398.543   Data:  80 47
T845C 000:398.549 - 0.017ms returns 2 (0x2)
T845C 000:398.558 JLINK_ReadMemEx(0x080002AE, 0x2 Bytes, Flags = 0x02000000)
T845C 000:398.562    -- Read from C cache (2 bytes @ 0x080002AE)
T845C 000:398.568   Data:  80 47
T845C 000:398.573 - 0.017ms returns 2 (0x2)
T845C 000:398.578 JLINK_ReadMemEx(0x080002B0, 0x3C Bytes, Flags = 0x02000000)
T845C 000:398.583    -- Read from C cache (60 bytes @ 0x080002B0)
T845C 000:398.589   Data:  06 48 00 47 FE E7 FE E7 FE E7 FE E7 FE E7 FE E7 ...
T845C 000:398.594 - 0.018ms returns 60 (0x3C)
T845C 000:398.599 JLINK_ReadMemEx(0x080002B0, 0x2 Bytes, Flags = 0x02000000)
T845C 000:398.604    -- Read from C cache (2 bytes @ 0x080002B0)
T845C 000:398.609   Data:  06 48
T845C 000:398.615 - 0.017ms returns 2 (0x2)
T845C 000:398.622 JLINK_ReadMemEx(0x080002B0, 0x3C Bytes, Flags = 0x02000000)
T845C 000:398.626    -- Read from C cache (60 bytes @ 0x080002B0)
T845C 000:398.633   Data:  06 48 00 47 FE E7 FE E7 FE E7 FE E7 FE E7 FE E7 ...
T845C 000:398.641 - 0.021ms returns 60 (0x3C)
T845C 000:398.646 JLINK_ReadMemEx(0x080002B0, 0x2 Bytes, Flags = 0x02000000)
T845C 000:398.652    -- Read from C cache (2 bytes @ 0x080002B0)
T845C 000:398.657   Data:  06 48
T845C 000:398.662 - 0.017ms returns 2 (0x2)
T845C 000:398.671 JLINK_ReadMemEx(0x080002B2, 0x2 Bytes, Flags = 0x02000000)
T845C 000:398.675    -- Read from C cache (2 bytes @ 0x080002B2)
T845C 000:398.681   Data:  00 47
T845C 000:398.686 - 0.016ms returns 2 (0x2)
T845C 000:456.270 JLINK_WriteU32_64(0xE0001008, 0x00000000)
T845C 000:456.286   Debug reg: DWT_CPICNT
T845C 000:456.305 - 0.037ms returns 0 (0x00000000)
T845C 000:456.310 JLINK_WriteU32_64(0xE000100C, 0x00000000)
T845C 000:456.312   Debug reg: DWT_EXCCNT
T845C 000:456.317 - 0.008ms returns 0 (0x00000000)
T845C 000:456.320 JLINK_WriteU32_64(0xE0001010, 0x00000000)
T845C 000:456.323   Debug reg: DWT_SLEEPCNT
T845C 000:456.327 - 0.007ms returns 0 (0x00000000)
T845C 000:456.330 JLINK_WriteU32_64(0xE0001014, 0x00000000)
T845C 000:456.332   Debug reg: DWT_LSUCNT
T845C 000:456.336 - 0.007ms returns 0 (0x00000000)
T845C 000:456.340 JLINK_WriteU32_64(0xE0001018, 0x00000000)
T845C 000:456.342   Debug reg: DWT_FOLDCNT
T845C 000:456.346 - 0.007ms returns 0 (0x00000000)
T845C 000:504.408 JLINK_HasError()
T845C 000:504.425 JLINK_ReadReg(R0)
T845C 000:504.432 - 0.008ms returns 0x00000000
T845C 000:504.436 JLINK_ReadReg(R1)
T845C 000:504.439 - 0.003ms returns 0x00000000
T845C 000:504.442 JLINK_ReadReg(R2)
T845C 000:504.444 - 0.003ms returns 0x00000000
T845C 000:504.450 JLINK_ReadReg(R3)
T845C 000:504.454 - 0.004ms returns 0x00000000
T845C 000:504.457 JLINK_ReadReg(R4)
T845C 000:504.459 - 0.003ms returns 0x00000000
T845C 000:504.462 JLINK_ReadReg(R5)
T845C 000:504.464 - 0.003ms returns 0x00000000
T845C 000:504.467 JLINK_ReadReg(R6)
T845C 000:504.470 - 0.003ms returns 0x00000000
T845C 000:504.473 JLINK_ReadReg(R7)
T845C 000:504.475 - 0.003ms returns 0x00000000
T845C 000:504.478 JLINK_ReadReg(R8)
T845C 000:504.482 - 0.005ms returns 0x00000000
T845C 000:504.485 JLINK_ReadReg(R9)
T845C 000:504.488 - 0.003ms returns 0x00000000
T845C 000:504.491 JLINK_ReadReg(R10)
T845C 000:504.493 - 0.003ms returns 0x00000000
T845C 000:504.496 JLINK_ReadReg(R11)
T845C 000:504.499 - 0.003ms returns 0x00000000
T845C 000:504.502 JLINK_ReadReg(R12)
T845C 000:504.504 - 0.003ms returns 0x00000000
T845C 000:504.507 JLINK_ReadReg(R13 (SP))
T845C 000:504.510 - 0.004ms returns 0x24001028
T845C 000:504.513 JLINK_ReadReg(R14)
T845C 000:504.515 - 0.003ms returns 0xFFFFFFFF
T845C 000:504.518 JLINK_ReadReg(R15 (PC))
T845C 000:504.521 - 0.004ms returns 0x080002AC
T845C 000:504.524 JLINK_ReadReg(XPSR)
T845C 000:504.527 - 0.003ms returns 0x01000000
T845C 000:504.530 JLINK_ReadReg(MSP)
T845C 000:504.532 - 0.003ms returns 0x24001028
T845C 000:504.535 JLINK_ReadReg(PSP)
T845C 000:504.537 - 0.003ms returns 0x00000000
T845C 000:504.540 JLINK_ReadReg(CFBP)
T845C 000:504.543 - 0.003ms returns 0x00000000
T845C 000:504.546 JLINK_ReadReg(FPSCR)
T845C 000:507.468 - 2.931ms returns 0x00000000
T845C 000:507.484 JLINK_ReadReg(FPS0)
T845C 000:507.489 - 0.006ms returns 0x00000000
T845C 000:507.494 JLINK_ReadReg(FPS1)
T845C 000:507.497 - 0.004ms returns 0x00000000
T845C 000:507.659 JLINK_ReadReg(FPS2)
T845C 000:507.669 - 0.011ms returns 0x00000000
T845C 000:507.673 JLINK_ReadReg(FPS3)
T845C 000:507.676 - 0.004ms returns 0x00000000
T845C 000:507.679 JLINK_ReadReg(FPS4)
T845C 000:507.682 - 0.003ms returns 0x00000000
T845C 000:507.685 JLINK_ReadReg(FPS5)
T845C 000:507.687 - 0.003ms returns 0x00000000
T845C 000:507.690 JLINK_ReadReg(FPS6)
T845C 000:507.693 - 0.003ms returns 0x00000000
T845C 000:507.696 JLINK_ReadReg(FPS7)
T845C 000:507.698 - 0.003ms returns 0x00000000
T845C 000:507.701 JLINK_ReadReg(FPS8)
T845C 000:507.703 - 0.003ms returns 0x00000000
T845C 000:507.706 JLINK_ReadReg(FPS9)
T845C 000:507.709 - 0.003ms returns 0x00000000
T845C 000:507.712 JLINK_ReadReg(FPS10)
T845C 000:507.714 - 0.003ms returns 0x00000000
T845C 000:507.717 JLINK_ReadReg(FPS11)
T845C 000:507.720 - 0.003ms returns 0x00000000
T845C 000:507.723 JLINK_ReadReg(FPS12)
T845C 000:507.725 - 0.003ms returns 0x00000000
T845C 000:507.728 JLINK_ReadReg(FPS13)
T845C 000:507.730 - 0.003ms returns 0x00000000
T845C 000:507.733 JLINK_ReadReg(FPS14)
T845C 000:507.736 - 0.003ms returns 0x00000000
T845C 000:507.739 JLINK_ReadReg(FPS15)
T845C 000:507.741 - 0.003ms returns 0xFFFFFFFF
T845C 000:507.744 JLINK_ReadReg(FPS16)
T845C 000:507.747 - 0.003ms returns 0x00000000
T845C 000:507.750 JLINK_ReadReg(FPS17)
T845C 000:507.752 - 0.003ms returns 0x00000000
T845C 000:507.755 JLINK_ReadReg(FPS18)
T845C 000:507.757 - 0.003ms returns 0x00000000
T845C 000:507.760 JLINK_ReadReg(FPS19)
T845C 000:507.763 - 0.003ms returns 0x00000000
T845C 000:507.766 JLINK_ReadReg(FPS20)
T845C 000:507.768 - 0.003ms returns 0x00000000
T845C 000:507.771 JLINK_ReadReg(FPS21)
T845C 000:507.774 - 0.003ms returns 0x00000000
T845C 000:507.777 JLINK_ReadReg(FPS22)
T845C 000:507.779 - 0.003ms returns 0x00000000
T845C 000:507.782 JLINK_ReadReg(FPS23)
T845C 000:507.784 - 0.003ms returns 0x00000000
T845C 000:507.787 JLINK_ReadReg(FPS24)
T845C 000:507.790 - 0.003ms returns 0x00000000
T845C 000:507.793 JLINK_ReadReg(FPS25)
T845C 000:507.795 - 0.003ms returns 0x00000000
T845C 000:507.798 JLINK_ReadReg(FPS26)
T845C 000:507.800 - 0.003ms returns 0x00000000
T845C 000:507.803 JLINK_ReadReg(FPS27)
T845C 000:507.806 - 0.003ms returns 0x00000000
T845C 000:507.809 JLINK_ReadReg(FPS28)
T845C 000:507.811 - 0.003ms returns 0x00000000
T845C 000:507.817 JLINK_ReadReg(FPS29)
T845C 000:507.821 - 0.004ms returns 0x00000000
T845C 000:507.824 JLINK_ReadReg(FPS30)
T845C 000:507.826 - 0.003ms returns 0x00000000
T845C 000:507.829 JLINK_ReadReg(FPS31)
T845C 000:507.831 - 0.003ms returns 0xFFFFFFFF
T845C 000:507.843 JLINK_ReadMemEx(0x080026CE, 0x2 Bytes, Flags = 0x02000000)
T845C 000:507.853   CPU_ReadMem(64 bytes @ 0x080026C0)
T845C 000:508.407    -- Updating C cache (64 bytes @ 0x080026C0)
T845C 000:508.431    -- Read from C cache (2 bytes @ 0x080026CE)
T845C 000:508.443   Data:  01 01
T845C 000:508.454 - 0.615ms returns 2 (0x2)
T845C 000:508.673 JLINK_ReadMemEx(0x080026CC, 0x1 Bytes, Flags = 0x02000000)
T845C 000:508.688    -- Read from C cache (1 bytes @ 0x080026CC)
T845C 000:508.699   Data:  01
T845C 000:508.710 - 0.040ms returns 1 (0x1)
T845C 000:508.752 JLINK_ReadMemEx(0x080026D0, 0x4 Bytes, Flags = 0x02000000)
T845C 000:508.762    -- Read from C cache (4 bytes @ 0x080026D0)
T845C 000:508.772   Data:  40 00 00 00
T845C 000:508.782 - 0.033ms returns 4 (0x4)
T845C 000:508.814 JLINK_ReadMemEx(0x080026D4, 0x4 Bytes, Flags = 0x02000000)
T845C 000:508.823    -- Read from C cache (4 bytes @ 0x080026D4)
T845C 000:508.833   Data:  40 00 00 20
T845C 000:508.843 - 0.033ms returns 4 (0x4)
T845C 000:508.874 JLINK_ReadMemEx(0x080026D8, 0x4 Bytes, Flags = 0x02000000)
T845C 000:508.883    -- Read from C cache (4 bytes @ 0x080026D8)
T845C 000:508.893   Data:  40 04 00 20
T845C 000:508.903 - 0.032ms returns 4 (0x4)
T845C 000:508.915 JLINK_ReadMemEx(0x080026DC, 0x4 Bytes, Flags = 0x02000000)
T845C 000:508.918    -- Read from C cache (4 bytes @ 0x080026DC)
T845C 000:508.921   Data:  C0 04 00 20
T845C 000:508.925 - 0.010ms returns 4 (0x4)
T845C 000:508.935 JLINK_ReadMemEx(0x080026E0, 0x1 Bytes, Flags = 0x02000000)
T845C 000:508.938    -- Read from C cache (1 bytes @ 0x080026E0)
T845C 000:508.941   Data:  00
T845C 000:508.945 - 0.011ms returns 1 (0x1)
T845C 001:565.825 JLINK_ReadMemEx(0x080002AC, 0x3C Bytes, Flags = 0x02000000)
T845C 001:565.848    -- Read from C cache (60 bytes @ 0x080002AC)
T845C 001:565.853   Data:  06 48 80 47 06 48 00 47 FE E7 FE E7 FE E7 FE E7 ...
T845C 001:565.856 - 0.032ms returns 60 (0x3C)
T845C 001:565.860 JLINK_ReadMemEx(0x080002AC, 0x2 Bytes, Flags = 0x02000000)
T845C 001:565.863    -- Read from C cache (2 bytes @ 0x080002AC)
T845C 001:565.867   Data:  06 48
T845C 001:565.871 - 0.012ms returns 2 (0x2)
T845C 001:565.874 JLINK_ReadMemEx(0x080002AE, 0x2 Bytes, Flags = 0x02000000)
T845C 001:565.877    -- Read from C cache (2 bytes @ 0x080002AE)
T845C 001:565.881   Data:  80 47
T845C 001:565.884 - 0.011ms returns 2 (0x2)
T845C 001:565.892 JLINK_ReadMemEx(0x080002AE, 0x2 Bytes, Flags = 0x02000000)
T845C 001:565.895    -- Read from C cache (2 bytes @ 0x080002AE)
T845C 001:565.899   Data:  80 47
T845C 001:565.902 - 0.010ms returns 2 (0x2)
T845C 001:565.905 JLINK_ReadMemEx(0x080002B0, 0x3C Bytes, Flags = 0x02000000)
T845C 001:565.908    -- Read from C cache (60 bytes @ 0x080002B0)
T845C 001:565.912   Data:  06 48 00 47 FE E7 FE E7 FE E7 FE E7 FE E7 FE E7 ...
T845C 001:565.915 - 0.011ms returns 60 (0x3C)
T845C 001:565.918 JLINK_ReadMemEx(0x080002B0, 0x2 Bytes, Flags = 0x02000000)
T845C 001:565.921    -- Read from C cache (2 bytes @ 0x080002B0)
T845C 001:565.925   Data:  06 48
T845C 001:565.928 - 0.010ms returns 2 (0x2)
T845C 001:565.933 JLINK_ReadMemEx(0x080002B0, 0x3C Bytes, Flags = 0x02000000)
T845C 001:565.935    -- Read from C cache (60 bytes @ 0x080002B0)
T845C 001:565.939   Data:  06 48 00 47 FE E7 FE E7 FE E7 FE E7 FE E7 FE E7 ...
T845C 001:565.942 - 0.011ms returns 60 (0x3C)
T845C 001:565.946 JLINK_ReadMemEx(0x080002B0, 0x2 Bytes, Flags = 0x02000000)
T845C 001:565.948    -- Read from C cache (2 bytes @ 0x080002B0)
T845C 001:565.952   Data:  06 48
T845C 001:565.955 - 0.010ms returns 2 (0x2)
T845C 001:565.958 JLINK_ReadMemEx(0x080002B2, 0x2 Bytes, Flags = 0x02000000)
T845C 001:565.961    -- Read from C cache (2 bytes @ 0x080002B2)
T845C 001:565.964   Data:  00 47
T845C 001:566.008 - 0.051ms returns 2 (0x2)
T7A68 001:707.303 JLINK_ReadMemEx(0x080002AC, 0x2 Bytes, Flags = 0x02000000)
T7A68 001:707.322    -- Read from C cache (2 bytes @ 0x080002AC)
T7A68 001:707.326   Data:  06 48
T7A68 001:707.330 - 0.028ms returns 2 (0x2)
T7A68 001:707.335 JLINK_HasError()
T7A68 001:707.340 JLINK_SetBPEx(Addr = 0x08002610, Type = 0xFFFFFFF2)
T7A68 001:707.346 - 0.007ms returns 0x00000001
T7A68 001:707.349 JLINK_HasError()
T7A68 001:707.352 JLINK_HasError()
T7A68 001:707.355 JLINK_ReadMemU32(0xE0001004, 0x1 Items)
T7A68 001:707.365   Data:  00 00 00 00
T7A68 001:707.369   Debug reg: DWT_CYCCNT
T7A68 001:707.372 - 0.018ms returns 1 (0x1)
T7A68 001:707.375 JLINK_WriteU32_64(0xE0001004, 0x000003FF)
T7A68 001:707.378   Debug reg: DWT_CYCCNT
T7A68 001:707.386 - 0.011ms returns 0 (0x00000000)
T7A68 001:707.389 JLINK_WriteU32_64(0xE0001000, 0x0041061F)
T7A68 001:707.393   Debug reg: DWT_CTRL
T7A68 001:707.399   CPU_WriteMem(4 bytes @ 0xE0001000)
T7A68 001:707.832 - 0.453ms returns 0 (0x00000000)
T7A68 001:707.850 JLINK_WriteU32_64(0xE0000E80, 0x0001000F)
T7A68 001:707.854   Debug reg: ITM_TCR
T7A68 001:707.863 - 0.014ms returns 0 (0x00000000)
T227C 001:707.877 JLINK_ReadMemEx(0x200004C0, 0x24 Bytes, Flags = 0x02000000)
T227C 001:707.895   CPU_ReadMem(64 bytes @ 0x200004C0)
T227C 001:708.411    -- Updating C cache (64 bytes @ 0x200004C0)
T227C 001:708.429    -- Read from C cache (36 bytes @ 0x200004C0)
T227C 001:708.433   Data:  00 00 52 95 02 00 00 00 02 00 00 00 00 00 00 00 ...
T227C 001:708.436 - 0.561ms returns 36 (0x24)
T7A68 001:708.449 JLINK_SWO_Control(JLINKARM_SWO_CMD_GET_NUM_BYTES, ...)
T7A68 001:708.458 - 0.010ms returns 0x00
T7A68 001:708.463 JLINK_Go()
T7A68 001:708.889   CPU_WriteMem(4 bytes @ 0xE0002000)
T7A68 001:709.147   CPU_ReadMem(4 bytes @ 0xE0001000)
T7A68 001:709.391   CPU_WriteMem(4 bytes @ 0xE0000E80)
T7A68 001:709.400   CPU_WriteMem(4 bytes @ 0xE0001008)
T7A68 001:709.404   CPU_WriteMem(4 bytes @ 0xE000100C)
T7A68 001:709.408   CPU_WriteMem(4 bytes @ 0xE0001010)
T7A68 001:709.412   CPU_WriteMem(4 bytes @ 0xE0001014)
T7A68 001:709.415   CPU_WriteMem(4 bytes @ 0xE0001018)
T7A68 001:709.419   CPU_WriteMem(4 bytes @ 0xE0002008)
T7A68 001:709.422   CPU_WriteMem(4 bytes @ 0xE000200C)
T7A68 001:709.426   CPU_WriteMem(4 bytes @ 0xE0002010)
T7A68 001:709.429   CPU_WriteMem(4 bytes @ 0xE0002014)
T7A68 001:709.433   CPU_WriteMem(4 bytes @ 0xE0002018)
T7A68 001:709.436   CPU_WriteMem(4 bytes @ 0xE000201C)
T7A68 001:709.439   CPU_WriteMem(4 bytes @ 0xE0002020)
T7A68 001:709.444   CPU_WriteMem(4 bytes @ 0xE0002024)
T7A68 001:711.589   CPU_WriteMem(4 bytes @ 0xE0001004)
T7A68 001:712.310 - 3.853ms
T7A68 001:712.324 JLINK_WriteU32_64(0xE0001000, 0x0001061F)
T7A68 001:712.328   Debug reg: DWT_CTRL
T7A68 001:712.338   CPU is running
T7A68 001:712.345   CPU_WriteMem(4 bytes @ 0xE0001000)
T7A68 001:712.587 - 0.269ms returns 0 (0x00000000)
T227C 001:712.619 JLINK_ReadMemEx(0xE0001004, 0x4 Bytes, Flags = 0x02000000)
T227C 001:712.644   CPU_ReadMem(4 bytes @ 0xE0001004)
T227C 001:712.887   Data:  E0 17 00 00
T227C 001:712.896   Debug reg: DWT_CYCCNT
T227C 001:712.900 - 0.282ms returns 4 (0x4)
T227C 001:712.910 JLINK_ReadMemEx(0x20000040, 0x400 Bytes, Flags = 0x02000000)
T227C 001:712.918   CPU_ReadMem(1024 bytes @ 0x20000040)
T227C 001:717.536   Data:  00 00 00 00 00 00 00 00 00 00 00 00 00 00 00 00 ...
T227C 001:717.545 - 4.636ms returns 1024 (0x400)
T227C 001:717.555 JLINK_ReadMemEx(0x200004C0, 0x24 Bytes, Flags = 0x02000000)
T227C 001:717.562   CPU_ReadMem(36 bytes @ 0x200004C0)
T227C 001:717.983   Data:  00 00 00 00 00 00 00 00 00 00 00 00 00 00 00 00 ...
T227C 001:717.992 - 0.438ms returns 36 (0x24)
T227C 001:718.002 JLINK_ReadMemEx(0x200004C0, 0x24 Bytes, Flags = 0x02000000)
T227C 001:718.009   CPU_ReadMem(36 bytes @ 0x200004C0)
T227C 001:718.368   Data:  00 00 00 00 00 00 00 00 00 00 00 00 00 00 00 00 ...
T227C 001:718.376 - 0.376ms returns 36 (0x24)
T227C 001:723.908 JLINK_ReadMemEx(0x200004D4, 0x4 Bytes, Flags = 0x02000000)
T227C 001:723.948   CPU_ReadMem(4 bytes @ 0x200004D4)
T227C 001:724.211   Data:  00 00 00 00
T227C 001:724.225 - 0.318ms returns 4 (0x4)
T227C 001:724.232 JLINK_ReadMemEx(0x20000040, 0x400 Bytes, Flags = 0x02000000)
T227C 001:724.241   CPU_ReadMem(1024 bytes @ 0x20000040)
T227C 001:728.873   Data:  00 00 00 00 00 00 00 00 00 00 00 00 00 00 00 00 ...
T227C 001:728.883 - 4.652ms returns 1024 (0x400)
T227C 001:728.893 JLINK_ReadMemEx(0x200004C0, 0x24 Bytes, Flags = 0x02000000)
T227C 001:728.901   CPU_ReadMem(36 bytes @ 0x200004C0)
T227C 001:729.297   Data:  00 00 00 00 00 00 00 00 00 00 00 00 00 00 00 00 ...
T227C 001:729.306 - 0.414ms returns 36 (0x24)
T227C 001:733.923 JLINK_ReadMemEx(0x20000040, 0x400 Bytes, Flags = 0x02000000)
T227C 001:733.945   CPU_ReadMem(1024 bytes @ 0x20000040)
T227C 001:738.552   Data:  00 00 00 00 00 00 00 00 00 00 00 00 00 00 00 00 ...
T227C 001:738.564 - 4.642ms returns 1024 (0x400)
T227C 001:738.776 JLINK_ReadMemEx(0x200004C0, 0x24 Bytes, Flags = 0x02000000)
T227C 001:738.794   CPU_ReadMem(36 bytes @ 0x200004C0)
T227C 001:739.148   Data:  00 00 00 00 00 00 00 00 00 00 00 00 00 00 00 00 ...
T227C 001:739.156 - 0.381ms returns 36 (0x24)
T227C 001:743.813 JLINK_ReadMemEx(0x20000040, 0x400 Bytes, Flags = 0x02000000)
T227C 001:743.833   CPU_ReadMem(1024 bytes @ 0x20000040)
T227C 001:748.502   Data:  00 00 00 00 00 00 00 00 00 00 00 00 00 00 00 00 ...
T227C 001:748.513 - 4.701ms returns 1024 (0x400)
T227C 001:748.756 JLINK_ReadMemEx(0x200004C0, 0x24 Bytes, Flags = 0x02000000)
T227C 001:748.772   CPU_ReadMem(36 bytes @ 0x200004C0)
T227C 001:749.138   Data:  00 00 00 00 00 00 00 00 00 00 00 00 00 00 00 00 ...
T227C 001:749.142 - 0.388ms returns 36 (0x24)
T227C 001:753.799 JLINK_ReadMemEx(0x20000040, 0x400 Bytes, Flags = 0x02000000)
T227C 001:753.816   CPU_ReadMem(1024 bytes @ 0x20000040)
T227C 001:758.406   Data:  00 00 00 00 00 00 00 00 00 00 00 00 00 00 00 00 ...
T227C 001:758.417 - 4.619ms returns 1024 (0x400)
T227C 001:758.429 JLINK_ReadMemEx(0x200004C0, 0x24 Bytes, Flags = 0x02000000)
T227C 001:758.439   CPU_ReadMem(36 bytes @ 0x200004C0)
T227C 001:758.821   Data:  00 00 00 00 00 00 00 00 00 00 00 00 00 00 00 00 ...
T227C 001:758.837 - 0.410ms returns 36 (0x24)
T227C 001:764.803 JLINK_ReadMemEx(0x20000040, 0x400 Bytes, Flags = 0x02000000)
T227C 001:764.821   CPU_ReadMem(1024 bytes @ 0x20000040)
T227C 001:769.412   Data:  00 00 00 00 00 00 00 00 00 00 00 00 00 00 00 00 ...
T227C 001:769.421 - 4.620ms returns 1024 (0x400)
T227C 001:769.433 JLINK_ReadMemEx(0x200004C0, 0x24 Bytes, Flags = 0x02000000)
T227C 001:769.440   CPU_ReadMem(36 bytes @ 0x200004C0)
T227C 001:769.816   Data:  00 00 00 00 00 00 00 00 00 00 00 00 00 00 00 00 ...
T227C 001:769.824 - 0.392ms returns 36 (0x24)
T227C 001:775.611 JLINK_ReadMemEx(0x20000040, 0x400 Bytes, Flags = 0x02000000)
T227C 001:775.629   CPU_ReadMem(1024 bytes @ 0x20000040)
T227C 001:780.275   Data:  00 00 00 00 00 00 00 00 00 00 00 00 00 00 00 00 ...
T227C 001:780.285 - 4.675ms returns 1024 (0x400)
T227C 001:780.455 JLINK_ReadMemEx(0x200004C0, 0x24 Bytes, Flags = 0x02000000)
T227C 001:780.464   CPU_ReadMem(36 bytes @ 0x200004C0)
T227C 001:780.846   Data:  00 00 00 00 00 00 00 00 00 00 00 00 00 00 00 00 ...
T227C 001:780.855 - 0.401ms returns 36 (0x24)
T227C 001:785.645 JLINK_ReadMemEx(0x20000040, 0x400 Bytes, Flags = 0x02000000)
T227C 001:785.661   CPU_ReadMem(1024 bytes @ 0x20000040)
T227C 001:790.286   Data:  00 00 00 00 00 00 00 00 00 00 00 00 00 00 00 00 ...
T227C 001:790.299 - 4.654ms returns 1024 (0x400)
T227C 001:790.479 JLINK_ReadMemEx(0x200004C0, 0x24 Bytes, Flags = 0x02000000)
T227C 001:790.496   CPU_ReadMem(36 bytes @ 0x200004C0)
T227C 001:790.937   Data:  00 00 00 00 00 00 00 00 00 00 00 00 00 00 00 00 ...
T227C 001:790.943 - 0.466ms returns 36 (0x24)
T227C 001:796.795 JLINK_ReadMemEx(0x20000040, 0x400 Bytes, Flags = 0x02000000)
T227C 001:796.833   CPU_ReadMem(1024 bytes @ 0x20000040)
T227C 001:801.416   Data:  00 00 00 00 00 00 00 00 00 00 00 00 00 00 00 00 ...
T227C 001:801.426 - 4.633ms returns 1024 (0x400)
T227C 001:801.664 JLINK_ReadMemEx(0x200004C0, 0x24 Bytes, Flags = 0x02000000)
T227C 001:801.682   CPU_ReadMem(36 bytes @ 0x200004C0)
T227C 001:802.035   Data:  00 00 00 00 00 00 00 00 00 00 00 00 00 00 00 00 ...
T227C 001:802.044 - 0.381ms returns 36 (0x24)
T227C 001:806.772 JLINK_ReadMemEx(0x20000040, 0x400 Bytes, Flags = 0x02000000)
T227C 001:806.789   CPU_ReadMem(1024 bytes @ 0x20000040)
T227C 001:811.418   Data:  00 00 00 00 00 00 00 00 00 00 00 00 00 00 00 00 ...
T227C 001:811.427 - 4.656ms returns 1024 (0x400)
T227C 001:811.668 JLINK_ReadMemEx(0x200004C0, 0x24 Bytes, Flags = 0x02000000)
T227C 001:811.685   CPU_ReadMem(36 bytes @ 0x200004C0)
T227C 001:812.043   Data:  00 00 00 00 00 00 00 00 00 00 00 00 00 00 00 00 ...
T227C 001:812.051 - 0.384ms returns 36 (0x24)
T7A68 001:812.780 JLINK_SWO_Read(..., Offset = 0x00, NumBytes = 0x400000)
T7A68 001:812.788   Data: 
T7A68 001:812.791 - 0.012ms returns NumBytesRead = 0x00
T7A68 001:812.795 JLINK_SWO_Control(JLINKARM_SWO_CMD_FLUSH, ...)
T7A68 001:812.798 - 0.004ms returns 0x00
T7A68 001:812.803 JLINK_HasError()
T7A68 001:812.806 JLINK_IsHalted()
T7A68 001:814.698 - 1.897ms returns TRUE
T7A68 001:814.710 JLINK_HasError()
T7A68 001:814.714 JLINK_Halt()
T7A68 001:814.717 - 0.003ms returns 0x00
T7A68 001:814.720 JLINK_IsHalted()
T7A68 001:814.723 - 0.004ms returns TRUE
T7A68 001:814.726 JLINK_IsHalted()
T7A68 001:814.728 - 0.003ms returns TRUE
T7A68 001:814.927 JLINK_IsHalted()
T7A68 001:814.931 - 0.005ms returns TRUE
T7A68 001:814.935 JLINK_HasError()
T7A68 001:814.939 JLINK_ReadReg(R15 (PC))
T7A68 001:814.943 - 0.005ms returns 0x08002610
T7A68 001:814.947 JLINK_ReadReg(XPSR)
T7A68 001:814.949 - 0.003ms returns 0x61000000
T7A68 001:814.953 JLINK_SWO_Read(..., Offset = 0x00, NumBytes = 0x400000)
T7A68 001:814.957   Data: 
T7A68 001:814.960 - 0.008ms returns NumBytesRead = 0x00
T7A68 001:814.964 JLINK_SWO_Control(JLINKARM_SWO_CMD_FLUSH, ...)
T7A68 001:814.966 - 0.004ms returns 0x00
T7A68 001:814.972 JLINK_HasError()
T7A68 001:814.975 JLINK_ClrBPEx(BPHandle = 0x00000001)
T7A68 001:814.978 - 0.004ms returns 0x00
T7A68 001:814.981 JLINK_HasError()
T7A68 001:814.984 JLINK_HasError()
T7A68 001:814.987 JLINK_ReadMemU32(0xE000ED30, 0x1 Items)
T7A68 001:814.993   CPU_ReadMem(4 bytes @ 0xE000ED30)
T7A68 001:815.240   Data:  02 00 00 00
T7A68 001:815.250 - 0.263ms returns 1 (0x1)
T7A68 001:815.255 JLINK_ReadMemU32(0xE0001028, 0x1 Items)
T7A68 001:815.262   CPU_ReadMem(4 bytes @ 0xE0001028)
T7A68 001:815.516   Data:  00 00 00 00
T7A68 001:815.528   Debug reg: DWT_FUNC[0]
T7A68 001:815.532 - 0.278ms returns 1 (0x1)
T7A68 001:815.537 JLINK_ReadMemU32(0xE0001038, 0x1 Items)
T7A68 001:815.544   CPU_ReadMem(4 bytes @ 0xE0001038)
T7A68 001:815.828   Data:  00 02 00 00
T7A68 001:815.834   Debug reg: DWT_FUNC[1]
T7A68 001:815.837 - 0.302ms returns 1 (0x1)
T7A68 001:815.842 JLINK_ReadMemU32(0xE0001048, 0x1 Items)
T7A68 001:815.846   CPU_ReadMem(4 bytes @ 0xE0001048)
T7A68 001:816.123   Data:  00 00 00 00
T7A68 001:816.131   Debug reg: DWT_FUNC[2]
T7A68 001:816.135 - 0.294ms returns 1 (0x1)
T7A68 001:816.140 JLINK_ReadMemU32(0xE0001058, 0x1 Items)
T7A68 001:816.147   CPU_ReadMem(4 bytes @ 0xE0001058)
T7A68 001:816.387   Data:  00 00 00 00
T7A68 001:816.393   Debug reg: DWT_FUNC[3]
T7A68 001:816.396 - 0.257ms returns 1 (0x1)
T227C 001:816.439 JLINK_ReadMemEx(0x20000040, 0x400 Bytes, Flags = 0x02000000)
T227C 001:816.454   CPU_ReadMem(1024 bytes @ 0x20000040)
T227C 001:821.073    -- Updating C cache (1024 bytes @ 0x20000040)
T227C 001:821.083    -- Read from C cache (1024 bytes @ 0x20000040)
T227C 001:821.088   Data:  00 00 00 00 00 00 00 00 00 00 00 00 00 00 00 00 ...
T227C 001:821.091 - 4.653ms returns 1024 (0x400)
T227C 001:821.269 JLINK_ReadMemEx(0x200004C0, 0x24 Bytes, Flags = 0x02000000)
T227C 001:821.291   CPU_ReadMem(64 bytes @ 0x200004C0)
T227C 001:821.814    -- Updating C cache (64 bytes @ 0x200004C0)
T227C 001:821.823    -- Read from C cache (36 bytes @ 0x200004C0)
T227C 001:821.827   Data:  00 00 00 00 00 00 00 00 00 00 00 00 00 00 00 00 ...
T227C 001:821.835 - 0.567ms returns 36 (0x24)
T7A68 001:821.998 JLINK_HasError()
T7A68 001:822.007 JLINK_ReadReg(R0)
T7A68 001:822.013 - 0.006ms returns 0x08002611
T7A68 001:822.016 JLINK_ReadReg(R1)
T7A68 001:822.019 - 0.004ms returns 0x24001028
T7A68 001:822.022 JLINK_ReadReg(R2)
T7A68 001:822.025 - 0.003ms returns 0x00000000
T7A68 001:822.028 JLINK_ReadReg(R3)
T7A68 001:822.031 - 0.003ms returns 0x08002689
T7A68 001:822.034 JLINK_ReadReg(R4)
T7A68 001:822.036 - 0.003ms returns 0x08002720
T7A68 001:822.039 JLINK_ReadReg(R5)
T7A68 001:822.042 - 0.003ms returns 0x08002720
T7A68 001:822.045 JLINK_ReadReg(R6)
T7A68 001:822.048 - 0.003ms returns 0x00000000
T7A68 001:822.051 JLINK_ReadReg(R7)
T7A68 001:822.053 - 0.003ms returns 0x00000000
T7A68 001:822.056 JLINK_ReadReg(R8)
T7A68 001:822.059 - 0.004ms returns 0x00000000
T7A68 001:822.062 JLINK_ReadReg(R9)
T7A68 001:822.064 - 0.003ms returns 0x00000000
T7A68 001:822.067 JLINK_ReadReg(R10)
T7A68 001:822.070 - 0.003ms returns 0x00000000
T7A68 001:822.073 JLINK_ReadReg(R11)
T7A68 001:822.075 - 0.003ms returns 0x00000000
T7A68 001:822.078 JLINK_ReadReg(R12)
T7A68 001:822.081 - 0.003ms returns 0x52002000
T7A68 001:822.084 JLINK_ReadReg(R13 (SP))
T7A68 001:822.087 - 0.004ms returns 0x24001028
T7A68 001:822.090 JLINK_ReadReg(R14)
T7A68 001:822.092 - 0.003ms returns 0x08000335
T7A68 001:822.095 JLINK_ReadReg(R15 (PC))
T7A68 001:822.098 - 0.004ms returns 0x08002610
T7A68 001:822.101 JLINK_ReadReg(XPSR)
T7A68 001:822.104 - 0.004ms returns 0x61000000
T7A68 001:822.107 JLINK_ReadReg(MSP)
T7A68 001:822.109 - 0.003ms returns 0x24001028
T7A68 001:822.112 JLINK_ReadReg(PSP)
T7A68 001:822.115 - 0.003ms returns 0x00000000
T7A68 001:822.118 JLINK_ReadReg(CFBP)
T7A68 001:822.120 - 0.003ms returns 0x00000000
T7A68 001:822.124 JLINK_ReadReg(FPSCR)
T7A68 001:825.035 - 2.919ms returns 0x00000000
T7A68 001:825.050 JLINK_ReadReg(FPS0)
T7A68 001:825.056 - 0.006ms returns 0x00000000
T7A68 001:825.061 JLINK_ReadReg(FPS1)
T7A68 001:825.064 - 0.004ms returns 0x00000000
T7A68 001:825.232 JLINK_ReadReg(FPS2)
T7A68 001:825.249 - 0.019ms returns 0x00000000
T7A68 001:825.256 JLINK_ReadReg(FPS3)
T7A68 001:825.261 - 0.007ms returns 0x00000000
T7A68 001:825.267 JLINK_ReadReg(FPS4)
T7A68 001:825.272 - 0.007ms returns 0x00000000
T7A68 001:825.278 JLINK_ReadReg(FPS5)
T7A68 001:825.283 - 0.007ms returns 0x00000000
T7A68 001:825.289 JLINK_ReadReg(FPS6)
T7A68 001:825.294 - 0.007ms returns 0x00000000
T7A68 001:825.300 JLINK_ReadReg(FPS7)
T7A68 001:825.304 - 0.007ms returns 0x00000000
T7A68 001:825.310 JLINK_ReadReg(FPS8)
T7A68 001:825.317 - 0.009ms returns 0x00000000
T7A68 001:825.323 JLINK_ReadReg(FPS9)
T7A68 001:825.328 - 0.007ms returns 0x00000000
T7A68 001:825.334 JLINK_ReadReg(FPS10)
T7A68 001:825.339 - 0.007ms returns 0x00000000
T7A68 001:825.344 JLINK_ReadReg(FPS11)
T7A68 001:825.349 - 0.007ms returns 0x00000000
T7A68 001:825.355 JLINK_ReadReg(FPS12)
T7A68 001:825.359 - 0.007ms returns 0x00000000
T7A68 001:825.365 JLINK_ReadReg(FPS13)
T7A68 001:825.370 - 0.007ms returns 0x00000000
T7A68 001:825.375 JLINK_ReadReg(FPS14)
T7A68 001:825.380 - 0.007ms returns 0x00000000
T7A68 001:825.386 JLINK_ReadReg(FPS15)
T7A68 001:825.391 - 0.007ms returns 0xFFFFFFFF
T7A68 001:825.396 JLINK_ReadReg(FPS16)
T7A68 001:825.401 - 0.007ms returns 0x00000000
T7A68 001:825.406 JLINK_ReadReg(FPS17)
T7A68 001:825.411 - 0.007ms returns 0x00000000
T7A68 001:825.417 JLINK_ReadReg(FPS18)
T7A68 001:825.421 - 0.007ms returns 0x00000000
T7A68 001:825.427 JLINK_ReadReg(FPS19)
T7A68 001:825.432 - 0.007ms returns 0x00000000
T7A68 001:825.437 JLINK_ReadReg(FPS20)
T7A68 001:825.442 - 0.007ms returns 0x00000000
T7A68 001:825.448 JLINK_ReadReg(FPS21)
T7A68 001:825.452 - 0.007ms returns 0x00000000
T7A68 001:825.458 JLINK_ReadReg(FPS22)
T7A68 001:825.463 - 0.007ms returns 0x00000000
T7A68 001:825.468 JLINK_ReadReg(FPS23)
T7A68 001:825.473 - 0.007ms returns 0x00000000
T7A68 001:825.479 JLINK_ReadReg(FPS24)
T7A68 001:825.488 - 0.014ms returns 0x00000000
T7A68 001:825.496 JLINK_ReadReg(FPS25)
T7A68 001:825.501 - 0.007ms returns 0x00000000
T7A68 001:825.507 JLINK_ReadReg(FPS26)
T7A68 001:825.511 - 0.007ms returns 0x00000000
T7A68 001:825.517 JLINK_ReadReg(FPS27)
T7A68 001:825.522 - 0.006ms returns 0x00000000
T7A68 001:825.527 JLINK_ReadReg(FPS28)
T7A68 001:825.532 - 0.007ms returns 0x00000000
T7A68 001:825.537 JLINK_ReadReg(FPS29)
T7A68 001:825.542 - 0.007ms returns 0x00000000
T7A68 001:825.548 JLINK_ReadReg(FPS30)
T7A68 001:825.552 - 0.007ms returns 0x00000000
T7A68 001:825.558 JLINK_ReadReg(FPS31)
T7A68 001:825.563 - 0.007ms returns 0xFFFFFFFF
T845C 001:832.226 JLINK_ReadMemEx(0x20000440, 0x80 Bytes, Flags = 0x02000000)
T845C 001:832.246   CPU_ReadMem(128 bytes @ 0x20000440)
T845C 001:833.051    -- Updating C cache (128 bytes @ 0x20000440)
T845C 001:833.059    -- Read from C cache (128 bytes @ 0x20000440)
T845C 001:833.063   Data:  00 00 00 00 00 00 00 00 00 00 00 00 00 00 00 00 ...
T845C 001:833.067 - 0.842ms returns 128 (0x80)
T845C 001:835.196 JLINK_ReadMemEx(0x08002510, 0x3C Bytes, Flags = 0x02000000)
T845C 001:835.210   CPU_ReadMem(128 bytes @ 0x08002500)
T845C 001:836.012    -- Updating C cache (128 bytes @ 0x08002500)
T845C 001:836.022    -- Read from C cache (60 bytes @ 0x08002510)
T845C 001:836.027   Data:  07 21 61 F3 03 00 CC F8 00 00 44 F2 00 40 4E F6 ...
T845C 001:836.030 - 0.835ms returns 60 (0x3C)
T845C 001:836.038 JLINK_ReadMemEx(0x08002510, 0x2 Bytes, Flags = 0x02000000)
T845C 001:836.042    -- Read from C cache (2 bytes @ 0x08002510)
T845C 001:836.046   Data:  07 21
T845C 001:836.049 - 0.012ms returns 2 (0x2)
T845C 001:836.056 JLINK_ReadMemEx(0x08002512, 0x2 Bytes, Flags = 0x02000000)
